T65CC 000:001.087   SEGGER J-Link V7.98f Log File
T65CC 000:001.206   DLL Compiled: Aug 29 2024 10:16:57
T65CC 000:001.212   Logging started @ 2024-10-01 04:30
T65CC 000:001.217   Process: C:\Program Files\SEGGER\SEGGER Embedded Studio 8.16a\bin\emStudio.exe
T65CC 000:001.224 - 1.223ms
T65CC 000:001.252 JLINK_ExecCommand("EnableAutoUpdateFW", ...). 
T65CC 000:001.268 - 0.014ms returns 0x00
T65CC 000:001.278 JLINK_OpenEx(...)
T65CC 000:005.729   Firmware: J-Link STLink V21 compiled Aug 12 2019 10:29:20
T65CC 000:006.691   Firmware: J-Link STLink V21 compiled Aug 12 2019 10:29:20
T65CC 000:021.035   Hardware: V1.00
T65CC 000:021.059   S/N: 779913955
T65CC 000:021.066   OEM: SEGGER
T65CC 000:021.073   Feature(s): None
T65CC 000:021.964   Bootloader: (Could not read)
T65CC 000:022.970   TELNET listener socket opened on port 19021
T65CC 000:023.161   WEBSRV WEBSRV_Init(): Starting webserver thread(s)
T65CC 000:023.376   WEBSRV Webserver running on local port 19080
T65CC 000:023.472   Looking for J-Link GUI Server exe at: C:\Program Files\SEGGER\SEGGER Embedded Studio 8.16a\bin\JLinkGUIServer.exe
T65CC 000:023.551   Forking J-Link GUI Server: C:\Program Files\SEGGER\SEGGER Embedded Studio 8.16a\bin\JLinkGUIServer.exe
T65CC 000:045.351   J-Link GUI Server info: "J-Link GUI server V7.98e "
T65CC 000:049.248 - 47.962ms returns "O.K."
T65CC 000:049.402 JLINK_GetFirmwareString(...)
T65CC 000:049.426 - 0.024ms
T65CC 000:050.053 JLINK_GetFirmwareString(...)
T65CC 000:050.071 - 0.018ms
T65CC 000:050.103 JLINK_GetDLLVersion()
T65CC 000:050.113 - 0.009ms returns 79806
T65CC 000:050.444 JLINK_GetHardwareVersion()
T65CC 000:050.463 - 0.018ms returns 10000
T65CC 000:050.929 JLINK_GetHWStatus(...)
T65CC 000:051.216 - 0.290ms returns 0
T65CC 000:051.597 JLINK_ExecCommand("ProjectFile =C:/Users/troyk/hmc-e155-labs/lab4_tk/segger_project/e155_lab4_music_Debug.jlink", ...). 
T65CC 000:065.979   Ref file found at: C:\Program Files\SEGGER\SEGGER Embedded Studio 8.16a\bin\JLinkDevices.ref
T65CC 000:066.133   REF file references invalid XML file: C:\Program Files\SEGGER\JLink_V798f\JLinkDevices.xml
T65CC 000:067.459 - 15.861ms returns 0x00
T65CC 000:067.512 JLINK_ExecCommand("", ...). 
T65CC 000:067.517 - 0.005ms returns 0x00
T65CC 000:067.526 JLINK_ExecCommand("device =STM32L432KC", ...). 
T65CC 000:068.561   Flash bank @ 0x08000000: SFL: Parsing sectorization info from ELF file
T65CC 000:068.577     FlashDevice.SectorInfo[0]: .SectorSize = 0x00000800, .SectorStartAddr = 0x00000000
T65CC 000:068.585   FlashBank @0x08000000: Sectorization info from SFL ELF file ignored because sectorization override from DLL / XML file is active.
T65CC 000:068.865   Device "STM32L432KC" selected.
T65CC 000:069.198 - 1.664ms returns 0x00
T65CC 000:069.233 JLINK_TIF_Select(JLINKARM_TIF_SWD)
T65CC 000:070.222 - 0.992ms returns 0x00
T65CC 000:070.255 JLINK_SetSpeed(4000)
T65CC 000:070.433 - 0.178ms
T65CC 000:070.445 JLINK_GetSpeed()
T65CC 000:070.451 - 0.005ms returns 4000
T65CC 000:070.659 JLINK_Connect()
T65CC 000:071.184   InitTarget() start
T65CC 000:071.208    J-Link Script File: Executing InitTarget()
T65CC 000:071.712   SWD selected. Executing JTAG -> SWD switching sequence.
T65CC 000:074.022   DAP initialized successfully.
T65CC 000:086.771   InitTarget() end - Took 15.4ms
T65CC 000:087.774   Found SW-DP with ID 0x4BA01477
T65CC 000:089.709   Old FW that does not support reading DPIDR via DAP jobs
T65CC 000:090.712   DPv0 detected
T65CC 000:090.927   CoreSight SoC-400 or earlier
T65CC 000:091.078   Scanning AP map to find all available APs
T65CC 000:092.126   AP[1]: Stopped AP scan as end of AP map has been reached
T65CC 000:092.357   AP[0]: AHB-AP (IDR: 0x24770011, ADDR: 0x00000000)
T65CC 000:092.561   Iterating through AP map to find AHB-AP to use
T65CC 000:093.900   AP[0]: Core found
T65CC 000:094.074   AP[0]: AHB-AP ROM base: 0xE00FF000
T65CC 000:095.145   CPUID register: 0x410FC241. Implementer code: 0x41 (ARM)
T65CC 000:095.379   Found Cortex-M4 r0p1, Little endian.
T65CC 000:096.095   -- Max. mem block: 0x00002EB8
T65CC 000:096.946   CPU_ReadMem(4 bytes @ 0xE000EDF0)
T65CC 000:097.620   CPU_ReadMem(4 bytes @ 0xE0002000)
T65CC 000:098.490   FPUnit: 6 code (BP) slots and 2 literal slots
T65CC 000:098.514   CPU_ReadMem(4 bytes @ 0xE000EDFC)
T65CC 000:099.014   CPU_WriteMem(4 bytes @ 0xE000EDFC)
T65CC 000:099.559   CPU_ReadMem(4 bytes @ 0xE0001000)
T65CC 000:100.120   CPU_WriteMem(4 bytes @ 0xE0001000)
T65CC 000:100.658   CPU_ReadMem(4 bytes @ 0xE000ED88)
T65CC 000:101.179   CPU_WriteMem(4 bytes @ 0xE000ED88)
T65CC 000:101.759   CPU_ReadMem(4 bytes @ 0xE000ED88)
T65CC 000:102.333   CPU_WriteMem(4 bytes @ 0xE000ED88)
T65CC 000:103.154   CoreSight components:
T65CC 000:103.566   ROMTbl[0] @ E00FF000
T65CC 000:103.614   CPU_ReadMem(64 bytes @ 0xE00FF000)
T65CC 000:104.598   CPU_ReadMem(32 bytes @ 0xE000EFE0)
T65CC 000:105.593   [0][0]: E000E000 CID B105E00D PID 000BB00C SCS-M7
T65CC 000:105.616   CPU_ReadMem(32 bytes @ 0xE0001FE0)
T65CC 000:106.662   [0][1]: E0001000 CID B105E00D PID 003BB002 DWT
T65CC 000:106.698   CPU_ReadMem(32 bytes @ 0xE0002FE0)
T65CC 000:107.634   [0][2]: E0002000 CID B105E00D PID 002BB003 FPB
T65CC 000:107.668   CPU_ReadMem(32 bytes @ 0xE0000FE0)
T65CC 000:108.671   [0][3]: E0000000 CID B105E00D PID 003BB001 ITM
T65CC 000:108.694   CPU_ReadMem(32 bytes @ 0xE0040FE0)
T65CC 000:109.600   [0][4]: E0040000 CID B105900D PID 000BB9A1 TPIU
T65CC 000:109.619   CPU_ReadMem(32 bytes @ 0xE0041FE0)
T65CC 000:110.542   [0][5]: E0041000 CID B105900D PID 000BB925 ETM
T65CC 000:110.612 - 39.952ms returns 0x00
T65CC 000:110.645 JLINK_DEVICE_GetIndex(sDeviceName = STM32L432KC)
T65CC 000:110.871 - 0.225ms returns 9764
T65CC 000:110.954 JLINK_DEVICE_GetInfo(DeviceIndex = 9764)
T65CC 000:110.968 - 0.015ms returns 0
T65CC 000:238.905 JLINK_Reset()
T65CC 000:238.947   CPU is running
T65CC 000:238.958   CPU_WriteMem(4 bytes @ 0xE000EDF0)
T65CC 000:239.449   CPU is running
T65CC 000:239.458   CPU_WriteMem(4 bytes @ 0xE000EDFC)
T65CC 000:240.109   Reset: Halt core after reset via DEMCR.VC_CORERESET.
T65CC 000:240.720   Reset: Reset device via AIRCR.SYSRESETREQ.
T65CC 000:240.731   CPU is running
T65CC 000:240.741   CPU_WriteMem(4 bytes @ 0xE000ED0C)
T65CC 000:295.553   CPU_ReadMem(4 bytes @ 0xE000EDF0)
T65CC 000:296.146   CPU_ReadMem(4 bytes @ 0xE000EDF0)
T65CC 000:299.865   CPU_WriteMem(4 bytes @ 0xE000EDFC)
T65CC 000:306.695   CPU_ReadMem(4 bytes @ 0xE000EDF0)
T65CC 000:310.850   CPU_WriteMem(4 bytes @ 0xE0002000)
T65CC 000:311.514   CPU_ReadMem(4 bytes @ 0xE000EDFC)
T65CC 000:312.010   CPU_ReadMem(4 bytes @ 0xE0001000)
T65CC 000:312.491 - 73.585ms
T65CC 000:315.392 JLINK_Halt()
T65CC 000:315.430 - 0.037ms returns 0x00
T65CC 000:315.448 JLINK_IsHalted()
T65CC 000:315.467 - 0.018ms returns TRUE
T65CC 000:315.502 JLINK_ReadRegs(NumRegs = 20, Indexes: 0, 1, 2, 3, 4, 5, 6, 7, 8, 9, 10, 11, 12, 13, 14, 15, 16, 17, 18, 20)
T65CC 000:315.547    -- R0=0x00, R1=0x00, R2=0x00, R3=0x00, R4=0x00, R5=0x00, R6=0x00, R7=0x00, R8=0x00, R9=0x00, R10=0x00, R11=0x00, R12=0x00, R13 (SP)=0x2000C000, R14=0xFFFFFFFF, R15 (PC)=0x8000976, XPSR=0x1000000, MSP=0x2000C000, PSP=0x00, CFBP=0x00
T65CC 000:315.567 - 0.064ms returns 0x00
T65CC 000:315.584 JLINK_ReadMemU32(0xE000ED04, 0x1 Items)
T65CC 000:315.611   CPU_ReadMem(4 bytes @ 0xE000ED04)
T65CC 000:316.305   Data:  00 00 00 00
T65CC 000:316.345 - 0.760ms returns 1 (0x1)
T65CC 000:317.428 JLINK_SetBPEx(Addr = 0x080006B6, Type = 0xFFFFFFF2)
T65CC 000:317.468 - 0.041ms returns 0x00000001
T65CC 000:318.132 JLINK_WriteVectorCatch(0x000007F0)
T65CC 000:318.176   CPU_ReadMem(4 bytes @ 0xE000EDFC)
T65CC 000:318.663   CPU_WriteMem(4 bytes @ 0xE000EDFC)
T65CC 000:319.261 - 1.129ms returns 0
T65CC 000:319.332 JLINK_WriteVectorCatch(0x000007F0)
T65CC 000:319.381 - 0.049ms returns 0
T65CC 000:319.405 JLINK_WriteVectorCatch(0x000007F0)
T65CC 000:319.420 - 0.015ms returns 0
T65CC 000:319.440 JLINK_WriteVectorCatch(0x000007F0)
T65CC 000:319.456 - 0.015ms returns 0
T65CC 000:319.474 JLINK_WriteVectorCatch(0x000007F0)
T65CC 000:319.490 - 0.015ms returns 0
T65CC 000:319.513 JLINK_WriteVectorCatch(0x000007F0)
T65CC 000:319.534 - 0.020ms returns 0
T65CC 000:319.553 JLINK_WriteVectorCatch(0x000007F0)
T65CC 000:319.568 - 0.015ms returns 0
T65CC 000:319.587 JLINK_WriteVectorCatch(0x000007F0)
T65CC 000:319.602 - 0.015ms returns 0
T65CC 000:319.657 JLINK_SetBPEx(Addr = 0x08000278, Type = 0xFFFFFFF2)
T65CC 000:319.674 - 0.017ms returns 0x00000002
T65CC 000:533.245 JLINK_BeginDownload(Flags = 0x00000000)
T65CC 000:533.272 - 0.028ms
T65CC 000:533.289 JLINK_WriteMem(0x08000000, 0x9F8 Bytes, ...)
T65CC 000:533.296   Data:  00 C0 00 20 77 09 00 08 5B 08 00 08 C1 06 00 08 ...
T65CC 000:533.577   completely In flash
T65CC 000:533.592 - 0.303ms returns 0x9F8
T65CC 000:533.603 JLINK_EndDownload()
T65CC 000:534.141   CPU_ReadMem(4 bytes @ 0xE000ED90)
T65CC 000:534.767   CPU_ReadMem(4 bytes @ 0xE000ED94)
T65CC 000:535.402    -- --------------------------------------
T65CC 000:535.426    -- Start of determining flash info (Bank @ 0x08000000)
T65CC 000:535.441    -- End of determining flash info
T65CC 000:535.451    -- Start of determining dirty areas in flash cache
T65CC 000:535.461    -- Filling invalid ranges in sector buffer (flash cache) for sector @ 0x08000000 if necessary
T65CC 000:535.471    -- Filling invalid ranges in sector buffer (flash cache) for sector @ 0x08000800 if necessary
T65CC 000:535.535    -- End of determining dirty areas
T65CC 000:535.545    -- Start of preparing flash programming
T65CC 000:535.556    -- Preparing RAMCode
T65CC 000:535.565    -- Calculating RAM usage
T65CC 000:535.575    -- RAM usage = 4632 Bytes
T65CC 000:535.585    -- Preserving CPU registers
T65CC 000:535.608    -- Preparing memory
T65CC 000:535.618    -- Preparing target
T65CC 000:535.627    -- Preserving target RAM temporarily used for programming
T65CC 000:563.714    -- Downloading RAMCode
T65CC 000:586.981    -- Initializing RAMCode (InitType: 3 = Verify)
T65CC 000:587.047    -- Executing SEGGER_FL_Prepare(3)
T65CC 000:593.171    -- End of preparing flash programming
T65CC 000:611.246    -- CPU speed could not be measured.
T65CC 000:611.306    -- Start of comparing flash
T65CC 000:611.334    -- CRC check was estimated as fastest method
T65CC 000:724.077    -- Comparing range 0x8000000 - 0x8000FFF (2 Sectors, 4 KB), using single-block CRC calculation
T65CC 000:732.146    -- CRC does not match, checking individual sectors
T65CC 000:735.736    -- CRC does not match for sectors 0-1
T65CC 000:735.758    -- End of comparing flash
T65CC 000:735.767    -- Start of erasing sectors
T65CC 000:735.777    -- Erasing range 0x08000000 - 0x08000FFF (  2 Sectors, 4 KB)
T65CC 000:784.066    -- End of erasing sectors
T65CC 000:784.125    -- Start of flash programming
T65CC 000:784.156    -- Programming range 0x08000000 - 0x08000FFF (  2 Sectors, 4 KB)
T65CC 000:813.682    -- End of flash programming
T65CC 000:813.761    -- 0x8000000 - 0x8000FFF (  2 Sectors, 4 KB)
T65CC 000:813.795    -- Start of verifying flash
T65CC 000:813.826    -- Use CRC or checksum calculation as verify method
T65CC 000:813.856    -- Checksum is not supported by this flash bank. Switched to read back method.
T65CC 000:839.601    -- End of verifying flash
T65CC 000:839.672    -- Start of restoring
T65CC 000:839.702    -- Executing SEGGER_FL_Restore()
T65CC 000:845.167    -- Restoring target memory
T65CC 000:869.785    -- Restoring CPU registers
T65CC 000:869.867    -- End of restoring
T65CC 000:870.537    -- Bank 0 @ 0x08000000: 1 range affected (4096 bytes)
T65CC 000:871.390    -- Total: 0.334s (Prepare: 0.075s, Compare: 0.124s, Erase: 0.048s, Program: 0.046s, Verify: 0.008s, Restore: 0.030s)
T65CC 000:871.742    -- Program speed: 87 KB/s
T65CC 000:888.378 - 354.770ms returns 4096 (0x1000)
T65CC 000:964.316 JLINK_ReadMem(0xE000ED08, 0x4 Bytes, ...)
T65CC 000:964.352   CPU_ReadMem(4 bytes @ 0xE000ED08)
T65CC 000:964.813   Data:  00 00 00 00
T65CC 000:964.824 - 0.508ms returns 0
T65CC 000:964.859 JLINK_WriteRegs(NumRegs = 20, Indexes: 0, 1, 2, 3, 4, 5, 6, 7, 8, 9, 10, 11, 12, 13, 14, 15, 16, 17, 18, 20)
T65CC 000:964.876    -- R0=0x00, R1=0x00, R2=0x00, R3=0x00, R4=0x00, R5=0x00, R6=0x00, R7=0x00, R8=0x00, R9=0x00, R10=0x00, R11=0x00, R12=0x00, R13 (SP)=0x2000C000, R14=0xFFFFFFFF, R15 (PC)=0x8000976, XPSR=0x1000000, MSP=0x2000C000, PSP=0x00, CFBP=0x00
T65CC 000:964.886 - 0.027ms returns 0
T65CC 000:964.892 JLINK_WriteRegs(NumRegs = 1, Indexes: 65)
T65CC 000:964.898    -- CycleCnt=0x00
T65CC 000:964.905 - 0.013ms returns 0
T65CC 000:964.918 JLINK_GoEx(MaxEmulInsts = -1, Flags = 0x01)
T65CC 000:965.333   CPU_WriteMem(4 bytes @ 0xE0002000)
T65CC 000:965.819   CPU_WriteMem(4 bytes @ 0xE0002000)
T65CC 000:966.268   CPU_ReadMem(4 bytes @ 0xE0001000)
T65CC 000:966.713   CPU_WriteMem(4 bytes @ 0xE0002008)
T65CC 000:966.725   CPU_WriteMem(4 bytes @ 0xE000200C)
T65CC 000:966.733   CPU_WriteMem(4 bytes @ 0xE0002010)
T65CC 000:966.744   CPU_WriteMem(4 bytes @ 0xE0002014)
T65CC 000:966.752   CPU_WriteMem(4 bytes @ 0xE0002018)
T65CC 000:966.761   CPU_WriteMem(4 bytes @ 0xE000201C)
T65CC 000:968.352   CPU_WriteMem(4 bytes @ 0xE0001004)
T65CC 000:972.188   Memory map 'after startup completion point' is active
T65CC 000:972.204 - 7.286ms
T65CC 000:972.667 JLINK_WriteVectorCatch(0x000007F0)
T65CC 000:972.680   CPU is running
T65CC 000:972.688   CPU_WriteMem(4 bytes @ 0xE000EDFC)
T65CC 000:973.174 - 0.508ms returns 0
T65CC 000:973.204 JLINK_WriteVectorCatch(0x000007F0)
T65CC 000:973.211   CPU is running
T65CC 000:973.219   CPU_WriteMem(4 bytes @ 0xE000EDFC)
T65CC 000:973.677 - 0.472ms returns 0
T65CC 000:973.702 JLINK_WriteVectorCatch(0x000007F0)
T65CC 000:973.709   CPU is running
T65CC 000:973.717   CPU_WriteMem(4 bytes @ 0xE000EDFC)
T65CC 000:974.138 - 0.435ms returns 0
T65CC 000:974.169 JLINK_WriteVectorCatch(0x000007F0)
T65CC 000:974.175   CPU is running
T65CC 000:974.183   CPU_WriteMem(4 bytes @ 0xE000EDFC)
T65CC 000:974.580 - 0.411ms returns 0
T65CC 000:974.610 JLINK_WriteVectorCatch(0x000007F0)
T65CC 000:974.616   CPU is running
T65CC 000:974.624   CPU_WriteMem(4 bytes @ 0xE000EDFC)
T65CC 000:975.009 - 0.398ms returns 0
T65CC 000:975.084 JLINK_WriteVectorCatch(0x000007F0)
T65CC 000:975.102   CPU is running
T65CC 000:975.111   CPU_WriteMem(4 bytes @ 0xE000EDFC)
T65CC 000:975.584 - 0.499ms returns 0
T65CC 000:975.639 JLINK_WriteVectorCatch(0x000007F0)
T65CC 000:975.648   CPU is running
T65CC 000:975.661   CPU_WriteMem(4 bytes @ 0xE000EDFC)
T65CC 000:976.151 - 0.511ms returns 0
T65CC 000:976.198 JLINK_WriteVectorCatch(0x000007F0)
T65CC 000:976.206   CPU is running
T65CC 000:976.214   CPU_WriteMem(4 bytes @ 0xE000EDFC)
T65CC 000:976.739 - 0.540ms returns 0
T65CC 000:976.775 JLINK_WriteVectorCatch(0x000007F0)
T65CC 000:976.782   CPU is running
T65CC 000:976.796   CPU_WriteMem(4 bytes @ 0xE000EDFC)
T65CC 000:977.336 - 0.561ms returns 0
T65CC 000:977.348 JLINK_WriteVectorCatch(0x000007F0)
T65CC 000:977.355   CPU is running
T65CC 000:977.363   CPU_WriteMem(4 bytes @ 0xE000EDFC)
T65CC 000:977.860 - 0.511ms returns 0
T65CC 000:977.873 JLINK_WriteVectorCatch(0x000007F0)
T65CC 000:977.879   CPU is running
T65CC 000:977.886   CPU_WriteMem(4 bytes @ 0xE000EDFC)
T65CC 000:978.291 - 0.417ms returns 0
T65CC 000:978.313 JLINK_WriteVectorCatch(0x000007F0)
T65CC 000:978.319   CPU is running
T65CC 000:978.327   CPU_WriteMem(4 bytes @ 0xE000EDFC)
T65CC 000:978.818 - 0.505ms returns 0
T65CC 000:978.830 JLINK_WriteVectorCatch(0x000007F0)
T65CC 000:978.836   CPU is running
T65CC 000:978.843   CPU_WriteMem(4 bytes @ 0xE000EDFC)
T65CC 000:979.210 - 0.379ms returns 0
T65CC 000:979.221 JLINK_WriteVectorCatch(0x000007F0)
T65CC 000:979.227   CPU is running
T65CC 000:979.235   CPU_WriteMem(4 bytes @ 0xE000EDFC)
T65CC 000:979.619 - 0.398ms returns 0
T65CC 000:979.637 JLINK_WriteVectorCatch(0x000007F0)
T65CC 000:979.643   CPU is running
T65CC 000:979.651   CPU_WriteMem(4 bytes @ 0xE000EDFC)
T65CC 000:980.000 - 0.362ms returns 0
T65CC 000:980.011 JLINK_WriteVectorCatch(0x000007F0)
T65CC 000:980.017   CPU is running
T65CC 000:980.025   CPU_WriteMem(4 bytes @ 0xE000EDFC)
T65CC 000:980.459 - 0.447ms returns 0
T65CC 000:989.842 JLINK_IsHalted()
T65CC 000:992.991 - 3.147ms returns TRUE
T65CC 000:993.030 JLINK_ReadRegs(NumRegs = 20, Indexes: 0, 1, 2, 3, 4, 5, 6, 7, 8, 9, 10, 11, 12, 13, 14, 15, 16, 17, 18, 20)
T65CC 000:993.044    -- R0=0x80006B7, R1=0x8000994, R2=0x00, R3=0x80006B5, R4=0x80009E0, R5=0x00, R6=0x00, R7=0x00, R8=0x00, R9=0x00, R10=0x00, R11=0x00, R12=0x00, R13 (SP)=0x2000C000, R14=0x80006B5, R15 (PC)=0x80006B6, XPSR=0x1000000, MSP=0x2000C000, PSP=0x00, CFBP=0x00
T65CC 000:993.054 - 0.024ms returns 0x00
T65CC 000:993.063 JLINK_ReadRegs(NumRegs = 1, Indexes: 65)
T65CC 000:993.073   CPU_ReadMem(4 bytes @ 0xE0001004)
T65CC 000:993.573    -- CycleCnt=0xDB
T65CC 000:993.588 - 0.525ms returns 0x00
T65CC 000:993.598 JLINK_ReadMemU32(0xE000ED04, 0x1 Items)
T65CC 000:993.614   CPU_ReadMem(4 bytes @ 0xE000ED04)
T65CC 000:994.139   Data:  00 00 00 00
T65CC 000:994.150 - 0.551ms returns 1 (0x1)
T65CC 000:994.171 JLINK_GetMOEs(...)
T65CC 000:994.178   CPU_ReadMem(4 bytes @ 0xE000ED30)
T65CC 000:994.714 - 0.541ms returns 0x01
T65CC 000:995.312 JLINK_ReadMemU16(0x080006B6, 0x1 Items)
T65CC 000:995.324    -- Read from flash cache (2 bytes @ 0x080006B6)
T65CC 000:995.334   Data:  FF F7
T65CC 000:995.352 - 0.040ms returns 1 (0x1)
T65CC 000:995.365 JLINK_ReadMem(0xE000ED08, 0x4 Bytes, ...)
T65CC 000:995.376   CPU_ReadMem(4 bytes @ 0xE000ED08)
T65CC 000:996.067   Data:  00 00 00 00
T65CC 000:996.081 - 0.715ms returns 0
T65CC 000:996.118 JLINK_ReadMemU16(0x080006AC, 0x1 Items)
T65CC 000:996.125    -- Read from flash cache (2 bytes @ 0x080006AC)
T65CC 000:996.133   Data:  03 4C
T65CC 000:996.141 - 0.023ms returns 1 (0x1)
T65CC 000:996.150 JLINK_ReadMemU16(0x080006AE, 0x1 Items)
T65CC 000:996.155    -- Read from flash cache (2 bytes @ 0x080006AE)
T65CC 000:996.163   Data:  20 68
T65CC 000:996.171 - 0.021ms returns 1 (0x1)
T65CC 000:996.178 JLINK_ReadMemU16(0x080006B0, 0x1 Items)
T65CC 000:996.183    -- Read from flash cache (2 bytes @ 0x080006B0)
T65CC 000:996.191   Data:  04 34
T65CC 000:996.199 - 0.021ms returns 1 (0x1)
T65CC 000:996.208 JLINK_GetMOEs(...)
T65CC 000:996.213 - 0.005ms returns 0x01
T65CC 000:996.227 JLINK_ClrBPEx(BPHandle = 0x00000001)
T65CC 000:996.234 - 0.007ms returns 0x00
T65CC 000:996.252 JLINK_WriteVectorCatch(0x000007F0)
T65CC 000:996.260 - 0.008ms returns 0
T65CC 000:996.272 JLINK_WriteVectorCatch(0x000007F0)
T65CC 000:996.279 - 0.006ms returns 0
T65CC 000:996.286 JLINK_WriteVectorCatch(0x000007F0)
T65CC 000:996.293 - 0.006ms returns 0
T65CC 000:996.300 JLINK_WriteVectorCatch(0x000007F0)
T65CC 000:996.307 - 0.006ms returns 0
T65CC 000:996.314 JLINK_WriteVectorCatch(0x000007F0)
T65CC 000:996.321 - 0.006ms returns 0
T65CC 000:996.330 JLINK_WriteVectorCatch(0x000007F0)
T65CC 000:996.337 - 0.006ms returns 0
T65CC 000:996.344 JLINK_WriteVectorCatch(0x000007F0)
T65CC 000:996.350 - 0.006ms returns 0
T65CC 000:996.358 JLINK_WriteVectorCatch(0x000007F0)
T65CC 000:996.364 - 0.006ms returns 0
T65CC 000:996.418 JLINK_WriteRegs(NumRegs = 20, Indexes: 0, 1, 2, 3, 4, 5, 6, 7, 8, 9, 10, 11, 12, 13, 14, 15, 16, 17, 18, 20)
T65CC 000:996.430    -- R0=0x80006B7, R1=0x8000994, R2=0x00, R3=0x80006B5, R4=0x80009E0, R5=0x00, R6=0x00, R7=0x00, R8=0x00, R9=0x00, R10=0x00, R11=0x00, R12=0x00, R13 (SP)=0x2000C000, R14=0x80006B5, R15 (PC)=0x80006B6, XPSR=0x1000000, MSP=0x2000C000, PSP=0x00, CFBP=0x00
T65CC 000:996.439 - 0.020ms returns 0
T65CC 000:996.445 JLINK_WriteRegs(NumRegs = 1, Indexes: 65)
T65CC 000:996.451    -- CycleCnt=0xDB
T65CC 000:996.459 - 0.014ms returns 0
T65CC 000:996.470 JLINK_GoEx(MaxEmulInsts = -1, Flags = 0x01)
T65CC 000:996.478   CPU_WriteMem(4 bytes @ 0xE0002000)
T65CC 000:997.013   CPU_ReadMem(4 bytes @ 0xE0001000)
T65CC 000:997.564   CPU_WriteMem(4 bytes @ 0xE000ED30)
T65CC 000:998.142   CPU_WriteMem(4 bytes @ 0xE0002008)
T65CC 000:998.163   CPU_WriteMem(4 bytes @ 0xE000200C)
T65CC 000:998.993   CPU_WriteMem(4 bytes @ 0xE0001004)
T65CC 001:003.316 - 6.844ms
T65CC 001:004.410 JLINK_IsHalted()
T65CC 001:007.774 - 3.363ms returns TRUE
T65CC 001:007.806 JLINK_ReadRegs(NumRegs = 20, Indexes: 0, 1, 2, 3, 4, 5, 6, 7, 8, 9, 10, 11, 12, 13, 14, 15, 16, 17, 18, 20)
T65CC 001:007.827    -- R0=0x80006B7, R1=0x8000994, R2=0x00, R3=0x80006B5, R4=0x80009E0, R5=0x00, R6=0x00, R7=0x00, R8=0x00, R9=0x00, R10=0x00, R11=0x00, R12=0x00, R13 (SP)=0x2000C000, R14=0x80006BB, R15 (PC)=0x8000278, XPSR=0x1000000, MSP=0x2000C000, PSP=0x00, CFBP=0x00
T65CC 001:007.844 - 0.037ms returns 0x00
T65CC 001:007.856 JLINK_ReadRegs(NumRegs = 1, Indexes: 65)
T65CC 001:007.868   CPU_ReadMem(4 bytes @ 0xE0001004)
T65CC 001:008.385    -- CycleCnt=0xDD
T65CC 001:008.404 - 0.547ms returns 0x00
T65CC 001:008.419 JLINK_ReadMemU32(0xE000ED04, 0x1 Items)
T65CC 001:008.436   CPU_ReadMem(4 bytes @ 0xE000ED04)
T65CC 001:008.950   Data:  00 00 00 00
T65CC 001:008.969 - 0.550ms returns 1 (0x1)
T65CC 001:008.991 JLINK_GetMOEs(...)
T65CC 001:009.003   CPU_ReadMem(4 bytes @ 0xE000ED30)
T65CC 001:009.594 - 0.602ms returns 0x01
T65CC 001:009.624 JLINK_ReadMemU16(0x08000278, 0x1 Items)
T65CC 001:009.637    -- Read from flash cache (2 bytes @ 0x08000278)
T65CC 001:009.653   Data:  80 B5
T65CC 001:009.669 - 0.044ms returns 1 (0x1)
T65CC 001:009.686 JLINK_ReadMem(0xE000ED08, 0x4 Bytes, ...)
T65CC 001:009.699   CPU_ReadMem(4 bytes @ 0xE000ED08)
T65CC 001:010.223   Data:  00 00 00 00
T65CC 001:010.249 - 0.556ms returns 0
T65CC 001:010.461 JLINK_GetMOEs(...)
T65CC 001:010.473 - 0.012ms returns 0x01
T65CC 001:010.489 JLINK_ClrBPEx(BPHandle = 0x00000002)
T65CC 001:010.501 - 0.012ms returns 0x00
T65CC 001:010.524 JLINK_WriteVectorCatch(0x000007F0)
T65CC 001:010.538 - 0.013ms returns 0
T65CC 001:010.557 JLINK_WriteVectorCatch(0x000007F0)
T65CC 001:010.569 - 0.012ms returns 0
T65CC 001:010.584 JLINK_WriteVectorCatch(0x000007F0)
T65CC 001:010.596 - 0.012ms returns 0
T65CC 001:010.611 JLINK_WriteVectorCatch(0x000007F0)
T65CC 001:010.623 - 0.012ms returns 0
T65CC 001:010.637 JLINK_WriteVectorCatch(0x000007F0)
T65CC 001:010.650 - 0.012ms returns 0
T65CC 001:010.664 JLINK_WriteVectorCatch(0x000007F0)
T65CC 001:010.676 - 0.012ms returns 0
T65CC 001:010.691 JLINK_WriteVectorCatch(0x000007F0)
T65CC 001:010.703 - 0.012ms returns 0
T65CC 001:010.717 JLINK_WriteVectorCatch(0x000007F0)
T65CC 001:010.729 - 0.012ms returns 0
T65CC 001:046.577 JLINK_ReadMemU32(0x48000000, 0x1 Items)
T65CC 001:046.653   CPU_ReadMem(4 bytes @ 0x48000000)
T65CC 001:047.237   Data:  FF FF FF AB
T65CC 001:047.288 - 0.712ms returns 1 (0x1)
T65CC 001:047.889 JLINK_ReadMemU32(0x48000004, 0x1 Items)
T65CC 001:047.918   CPU_ReadMem(4 bytes @ 0x48000004)
T65CC 001:048.634   Data:  FF FF FF AB
T65CC 001:048.668 - 0.779ms returns 1 (0x1)
T65CC 001:049.073 JLINK_ReadMemU32(0x48000008, 0x1 Items)
T65CC 001:049.098   CPU_ReadMem(4 bytes @ 0x48000008)
T65CC 001:049.805   Data:  FF FF FF AB
T65CC 001:049.845 - 0.771ms returns 1 (0x1)
T65CC 001:050.416 JLINK_ReadMemU32(0x4800000C, 0x1 Items)
T65CC 001:050.445   CPU_ReadMem(4 bytes @ 0x4800000C)
T65CC 001:051.169   Data:  FF FF FF AB
T65CC 001:051.208 - 0.792ms returns 1 (0x1)
T65CC 001:051.808 JLINK_ReadMemU32(0x48000010, 0x1 Items)
T65CC 001:051.838   CPU_ReadMem(4 bytes @ 0x48000010)
T65CC 001:052.567   Data:  FF FF FF AB
T65CC 001:052.606 - 0.797ms returns 1 (0x1)
T65CC 001:053.101 JLINK_ReadMemU32(0x48000014, 0x1 Items)
T65CC 001:053.129   CPU_ReadMem(4 bytes @ 0x48000014)
T65CC 001:053.862   Data:  FF FF FF AB
T65CC 001:053.902 - 0.800ms returns 1 (0x1)
T65CC 001:054.398 JLINK_ReadMemU32(0x4800001C, 0x1 Items)
T65CC 001:054.425   CPU_ReadMem(4 bytes @ 0x4800001C)
T65CC 001:055.148   Data:  FF FF FF AB
T65CC 001:055.180 - 0.781ms returns 1 (0x1)
T65CC 001:056.032 JLINK_ReadMemU32(0x48000020, 0x1 Items)
T65CC 001:056.071   CPU_ReadMem(4 bytes @ 0x48000020)
T65CC 001:056.725   Data:  FF FF FF AB
T65CC 001:056.756 - 0.724ms returns 1 (0x1)
T65CC 001:057.098 JLINK_ReadMemU32(0x48000024, 0x1 Items)
T65CC 001:057.119   CPU_ReadMem(4 bytes @ 0x48000024)
T65CC 001:057.781   Data:  FF FF FF AB
T65CC 001:057.820 - 0.721ms returns 1 (0x1)
T65CC 001:058.131 JLINK_ReadMemU32(0x40021000, 0x1 Items)
T65CC 001:058.151   CPU_ReadMem(4 bytes @ 0x40021000)
T65CC 001:058.579   Data:  63 00 00 00
T65CC 001:058.611 - 0.479ms returns 1 (0x1)
T65CC 001:059.107 JLINK_ReadMemU32(0x40021004, 0x1 Items)
T65CC 001:059.128   CPU_ReadMem(4 bytes @ 0x40021004)
T65CC 001:059.787   Data:  92 00 8C 10
T65CC 001:059.819 - 0.711ms returns 1 (0x1)
T65CC 001:060.108 JLINK_ReadMemU32(0x40021008, 0x1 Items)
T65CC 001:060.131   CPU_ReadMem(4 bytes @ 0x40021008)
T65CC 001:060.763   Data:  00 00 00 00
T65CC 001:060.793 - 0.684ms returns 1 (0x1)
T65CC 001:061.118 JLINK_ReadMemU32(0x4002100C, 0x1 Items)
T65CC 001:061.138   CPU_ReadMem(4 bytes @ 0x4002100C)
T65CC 001:061.697   Data:  00 10 00 00
T65CC 001:061.740 - 0.621ms returns 1 (0x1)
T65CC 001:062.199 JLINK_ReadMemU32(0x40021010, 0x1 Items)
T65CC 001:062.226   CPU_ReadMem(4 bytes @ 0x40021010)
T65CC 001:062.856   Data:  00 10 00 00
T65CC 001:062.887 - 0.688ms returns 1 (0x1)
T65CC 001:063.235 JLINK_ReadMemU32(0x40021018, 0x1 Items)
T65CC 001:063.256   CPU_ReadMem(4 bytes @ 0x40021018)
T65CC 001:063.943   Data:  00 00 00 00
T65CC 001:063.976 - 0.741ms returns 1 (0x1)
T65CC 001:064.297 JLINK_ReadMemU32(0x4002101C, 0x1 Items)
T65CC 001:064.318   CPU_ReadMem(4 bytes @ 0x4002101C)
T65CC 001:064.907   Data:  00 00 00 00
T65CC 001:064.939 - 0.642ms returns 1 (0x1)
T65CC 001:065.305 JLINK_ReadMemU32(0x40021028, 0x1 Items)
T65CC 001:065.328   CPU_ReadMem(4 bytes @ 0x40021028)
T65CC 001:065.939   Data:  00 00 00 00
T65CC 001:065.972 - 0.666ms returns 1 (0x1)
T65CC 001:066.218 JLINK_ReadMemU32(0x4002102C, 0x1 Items)
T65CC 001:066.239   CPU_ReadMem(4 bytes @ 0x4002102C)
T65CC 001:066.862   Data:  00 00 00 00
T65CC 001:066.895 - 0.677ms returns 1 (0x1)
T65CC 001:067.226 JLINK_ReadMemU32(0x40021030, 0x1 Items)
T65CC 001:067.248   CPU_ReadMem(4 bytes @ 0x40021030)
T65CC 001:068.018   Data:  00 00 00 00
T65CC 001:068.050 - 0.823ms returns 1 (0x1)
T65CC 001:068.233 JLINK_ReadMemU32(0x40021038, 0x1 Items)
T65CC 001:068.255   CPU_ReadMem(4 bytes @ 0x40021038)
T65CC 001:068.874   Data:  00 00 00 00
T65CC 001:068.906 - 0.673ms returns 1 (0x1)
T65CC 001:069.461 JLINK_ReadMemU32(0x4002103C, 0x1 Items)
T65CC 001:069.482   CPU_ReadMem(4 bytes @ 0x4002103C)
T65CC 001:070.176   Data:  00 00 00 00
T65CC 001:070.209 - 0.748ms returns 1 (0x1)
T65CC 001:070.451 JLINK_ReadMemU32(0x40021040, 0x1 Items)
T65CC 001:070.473   CPU_ReadMem(4 bytes @ 0x40021040)
T65CC 001:071.147   Data:  00 00 00 00
T65CC 001:071.181 - 0.730ms returns 1 (0x1)
T65CC 001:071.560 JLINK_ReadMemU32(0x40021048, 0x1 Items)
T65CC 001:071.583   CPU_ReadMem(4 bytes @ 0x40021048)
T65CC 001:072.181   Data:  00 01 00 00
T65CC 001:072.216 - 0.655ms returns 1 (0x1)
T65CC 001:072.511 JLINK_ReadMemU32(0x4002104C, 0x1 Items)
T65CC 001:072.535   CPU_ReadMem(4 bytes @ 0x4002104C)
T65CC 001:073.125   Data:  00 00 00 00
T65CC 001:073.160 - 0.648ms returns 1 (0x1)
T65CC 001:073.529 JLINK_ReadMemU32(0x40021050, 0x1 Items)
T65CC 001:073.553   CPU_ReadMem(4 bytes @ 0x40021050)
T65CC 001:074.093   Data:  00 00 00 00
T65CC 001:074.136 - 0.606ms returns 1 (0x1)
T65CC 001:074.363 JLINK_ReadMemU32(0x40021058, 0x1 Items)
T65CC 001:074.390   CPU_ReadMem(4 bytes @ 0x40021058)
T65CC 001:074.937   Data:  00 04 00 00
T65CC 001:074.989 - 0.626ms returns 1 (0x1)
T65CC 001:075.802 JLINK_ReadMemU32(0x4002105C, 0x1 Items)
T65CC 001:075.832   CPU_ReadMem(4 bytes @ 0x4002105C)
T65CC 001:076.578   Data:  00 00 00 00
T65CC 001:076.613 - 0.811ms returns 1 (0x1)
T65CC 001:076.893 JLINK_ReadMemU32(0x40021060, 0x1 Items)
T65CC 001:076.915   CPU_ReadMem(4 bytes @ 0x40021060)
T65CC 001:077.504   Data:  00 00 00 00
T65CC 001:077.560 - 0.666ms returns 1 (0x1)
T65CC 001:078.096 JLINK_ReadMemU32(0x40021068, 0x1 Items)
T65CC 001:078.130   CPU_ReadMem(4 bytes @ 0x40021068)
T65CC 001:078.875   Data:  03 13 01 00
T65CC 001:078.919 - 0.822ms returns 1 (0x1)
T65CC 001:079.272 JLINK_ReadMemU32(0x4002106C, 0x1 Items)
T65CC 001:079.302   CPU_ReadMem(4 bytes @ 0x4002106C)
T65CC 001:080.253   Data:  9F 22 05 00
T65CC 001:080.303 - 1.031ms returns 1 (0x1)
T65CC 001:080.819 JLINK_ReadMemU32(0x40021070, 0x1 Items)
T65CC 001:080.842   CPU_ReadMem(4 bytes @ 0x40021070)
T65CC 001:081.495   Data:  00 01 00 00
T65CC 001:081.532 - 0.713ms returns 1 (0x1)
T65CC 001:081.721 JLINK_ReadMemU32(0x40021078, 0x1 Items)
T65CC 001:081.768   CPU_ReadMem(4 bytes @ 0x40021078)
T65CC 001:082.453   Data:  31 CE E6 F7
T65CC 001:082.504 - 0.782ms returns 1 (0x1)
T65CC 001:083.240 JLINK_ReadMemU32(0x4002107C, 0x1 Items)
T65CC 001:083.266   CPU_ReadMem(4 bytes @ 0x4002107C)
T65CC 001:083.973   Data:  25 00 00 00
T65CC 001:084.009 - 0.769ms returns 1 (0x1)
T65CC 001:084.282 JLINK_ReadMemU32(0x40021080, 0x1 Items)
T65CC 001:084.307   CPU_ReadMem(4 bytes @ 0x40021080)
T65CC 001:085.033   Data:  01 5C 23 00
T65CC 001:085.071 - 0.788ms returns 1 (0x1)
T65CC 001:085.496 JLINK_ReadMemU32(0x40021088, 0x1 Items)
T65CC 001:085.522   CPU_ReadMem(4 bytes @ 0x40021088)
T65CC 001:086.214   Data:  00 00 00 00
T65CC 001:086.251 - 0.755ms returns 1 (0x1)
T65CC 001:086.979 JLINK_ReadMemU32(0x40021090, 0x1 Items)
T65CC 001:087.007   CPU_ReadMem(4 bytes @ 0x40021090)
T65CC 001:087.746   Data:  00 00 00 00
T65CC 001:087.783 - 0.804ms returns 1 (0x1)
T65CC 001:088.338 JLINK_ReadMemU32(0x40021094, 0x1 Items)
T65CC 001:088.365   CPU_ReadMem(4 bytes @ 0x40021094)
T65CC 001:089.099   Data:  00 06 00 1C
T65CC 001:089.136 - 0.798ms returns 1 (0x1)
T65CC 001:089.764 JLINK_ReadMemU32(0x40021098, 0x1 Items)
T65CC 001:089.802   CPU_ReadMem(4 bytes @ 0x40021098)
T65CC 001:090.290   Data:  80 76 00 00
T65CC 001:090.327 - 0.562ms returns 1 (0x1)
T65CC 001:090.638 JLINK_ReadMemU32(0x40014000, 0x1 Items)
T65CC 001:090.665   CPU_ReadMem(4 bytes @ 0x40014000)
T65CC 001:091.199   Data:  00 00 00 00
T65CC 001:091.243 - 0.604ms returns 1 (0x1)
T65CC 001:091.697 JLINK_ReadMemU32(0x40014004, 0x1 Items)
T65CC 001:091.726   CPU_ReadMem(4 bytes @ 0x40014004)
T65CC 001:092.257   Data:  00 00 00 00
T65CC 001:092.301 - 0.603ms returns 1 (0x1)
T65CC 001:092.750 JLINK_ReadMemU32(0x4001400C, 0x1 Items)
T65CC 001:092.780   CPU_ReadMem(4 bytes @ 0x4001400C)
T65CC 001:093.431   Data:  00 00 00 00
T65CC 001:093.576 - 0.718ms returns 1 (0x1)
T65CC 001:094.158 JLINK_ReadMemU32(0x40014010, 0x1 Items)
T65CC 001:094.193   CPU_ReadMem(4 bytes @ 0x40014010)
T65CC 001:094.949   Data:  00 00 00 00
T65CC 001:094.986 - 0.828ms returns 1 (0x1)
T65CC 001:095.346 JLINK_ReadMemU32(0x40014018, 0x1 Items)
T65CC 001:095.371   CPU_ReadMem(4 bytes @ 0x40014018)
T65CC 001:096.086   Data:  00 00 00 00
T65CC 001:096.123 - 0.777ms returns 1 (0x1)
T65CC 001:096.510 JLINK_ReadMemU32(0x40014018, 0x1 Items)
T65CC 001:096.540   CPU_ReadMem(4 bytes @ 0x40014018)
T65CC 001:097.255   Data:  00 00 00 00
T65CC 001:097.292 - 0.781ms returns 1 (0x1)
T65CC 001:097.594 JLINK_ReadMemU32(0x40014020, 0x1 Items)
T65CC 001:097.619   CPU_ReadMem(4 bytes @ 0x40014020)
T65CC 001:098.307   Data:  00 00 00 00
T65CC 001:098.342 - 0.747ms returns 1 (0x1)
T65CC 001:098.667 JLINK_ReadMemU32(0x40014024, 0x1 Items)
T65CC 001:098.691   CPU_ReadMem(4 bytes @ 0x40014024)
T65CC 001:099.423   Data:  00 00 00 00
T65CC 001:099.458 - 0.790ms returns 1 (0x1)
T65CC 001:099.722 JLINK_ReadMemU32(0x40014028, 0x1 Items)
T65CC 001:099.746   CPU_ReadMem(4 bytes @ 0x40014028)
T65CC 001:100.427   Data:  00 00 00 00
T65CC 001:100.462 - 0.739ms returns 1 (0x1)
T65CC 001:100.664 JLINK_ReadMemU32(0x4001402C, 0x1 Items)
T65CC 001:100.686   CPU_ReadMem(4 bytes @ 0x4001402C)
T65CC 001:101.351   Data:  00 00 00 00
T65CC 001:101.386 - 0.721ms returns 1 (0x1)
T65CC 001:101.600 JLINK_ReadMemU32(0x40014030, 0x1 Items)
T65CC 001:101.622   CPU_ReadMem(4 bytes @ 0x40014030)
T65CC 001:102.288   Data:  00 00 00 00
T65CC 001:102.323 - 0.723ms returns 1 (0x1)
T65CC 001:102.556 JLINK_ReadMemU32(0x40014034, 0x1 Items)
T65CC 001:102.579   CPU_ReadMem(4 bytes @ 0x40014034)
T65CC 001:103.253   Data:  00 00 00 00
T65CC 001:103.291 - 0.735ms returns 1 (0x1)
T65CC 001:103.610 JLINK_ReadMemU32(0x40014044, 0x1 Items)
T65CC 001:103.644   CPU_ReadMem(4 bytes @ 0x40014044)
T65CC 001:104.342   Data:  00 00 00 00
T65CC 001:104.376 - 0.766ms returns 1 (0x1)
T65CC 001:104.892 JLINK_ReadMemU32(0x40014048, 0x1 Items)
T65CC 001:104.918   CPU_ReadMem(4 bytes @ 0x40014048)
T65CC 001:105.693   Data:  00 00 00 00
T65CC 001:105.730 - 0.837ms returns 1 (0x1)
T65CC 001:106.020 JLINK_ReadMemU32(0x4001404C, 0x1 Items)
T65CC 001:106.044   CPU_ReadMem(4 bytes @ 0x4001404C)
T65CC 001:106.743   Data:  00 00 00 00
T65CC 001:106.780 - 0.760ms returns 1 (0x1)
T65CC 001:107.039 JLINK_ReadMemU32(0x40014038, 0x1 Items)
T65CC 001:107.074   CPU_ReadMem(4 bytes @ 0x40014038)
T65CC 001:107.625   Data:  00 00 00 00
T65CC 001:107.660 - 0.621ms returns 1 (0x1)
T65CC 001:107.971 JLINK_ReadMemU32(0x40014050, 0x1 Items)
T65CC 001:108.006   CPU_ReadMem(4 bytes @ 0x40014050)
T65CC 001:108.689   Data:  00 00 00 00
T65CC 001:108.727 - 0.755ms returns 1 (0x1)
T65CC 001:108.977 JLINK_ReadMemU32(0x40014060, 0x1 Items)
T65CC 001:109.001   CPU_ReadMem(4 bytes @ 0x40014060)
T65CC 001:109.634   Data:  00 00 00 00
T65CC 001:109.671 - 0.694ms returns 1 (0x1)
T65CC 001:110.046 JLINK_ReadMemU32(0x40014008, 0x1 Items)
T65CC 001:110.071   CPU_ReadMem(4 bytes @ 0x40014008)
T65CC 001:111.063   Data:  00 00 00 00
T65CC 001:111.185 - 1.139ms returns 1 (0x1)
T65CC 001:111.656 JLINK_ReadMemU32(0x40014400, 0x1 Items)
T65CC 001:111.683   CPU_ReadMem(4 bytes @ 0x40014400)
T65CC 001:112.239   Data:  00 00 00 00
T65CC 001:112.279 - 0.623ms returns 1 (0x1)
T65CC 001:112.694 JLINK_ReadMemU32(0x40014404, 0x1 Items)
T65CC 001:112.717   CPU_ReadMem(4 bytes @ 0x40014404)
T65CC 001:113.390   Data:  00 00 00 00
T65CC 001:113.422 - 0.728ms returns 1 (0x1)
T65CC 001:113.761 JLINK_ReadMemU32(0x4001440C, 0x1 Items)
T65CC 001:113.786   CPU_ReadMem(4 bytes @ 0x4001440C)
T65CC 001:114.448   Data:  00 00 00 00
T65CC 001:114.481 - 0.719ms returns 1 (0x1)
T65CC 001:114.935 JLINK_ReadMemU32(0x40014410, 0x1 Items)
T65CC 001:114.959   CPU_ReadMem(4 bytes @ 0x40014410)
T65CC 001:115.593   Data:  00 00 00 00
T65CC 001:115.625 - 0.690ms returns 1 (0x1)
T65CC 001:116.044 JLINK_ReadMemU32(0x40014418, 0x1 Items)
T65CC 001:116.070   CPU_ReadMem(4 bytes @ 0x40014418)
T65CC 001:116.681   Data:  00 00 00 00
T65CC 001:116.714 - 0.670ms returns 1 (0x1)
T65CC 001:117.042 JLINK_ReadMemU32(0x40014418, 0x1 Items)
T65CC 001:117.063   CPU_ReadMem(4 bytes @ 0x40014418)
T65CC 001:117.752   Data:  00 00 00 00
T65CC 001:117.784 - 0.742ms returns 1 (0x1)
T65CC 001:118.072 JLINK_ReadMemU32(0x40014420, 0x1 Items)
T65CC 001:118.094   CPU_ReadMem(4 bytes @ 0x40014420)
T65CC 001:118.794   Data:  00 00 00 00
T65CC 001:118.827 - 0.754ms returns 1 (0x1)
T65CC 001:119.111 JLINK_ReadMemU32(0x40014424, 0x1 Items)
T65CC 001:119.132   CPU_ReadMem(4 bytes @ 0x40014424)
T65CC 001:119.822   Data:  00 00 00 00
T65CC 001:119.854 - 0.743ms returns 1 (0x1)
T65CC 001:120.088 JLINK_ReadMemU32(0x40014428, 0x1 Items)
T65CC 001:120.109   CPU_ReadMem(4 bytes @ 0x40014428)
T65CC 001:120.809   Data:  00 00 00 00
T65CC 001:120.841 - 0.753ms returns 1 (0x1)
T65CC 001:121.038 JLINK_ReadMemU32(0x4001442C, 0x1 Items)
T65CC 001:121.058   CPU_ReadMem(4 bytes @ 0x4001442C)
T65CC 001:121.735   Data:  00 00 00 00
T65CC 001:121.768 - 0.729ms returns 1 (0x1)
T65CC 001:121.967 JLINK_ReadMemU32(0x40014430, 0x1 Items)
T65CC 001:121.988   CPU_ReadMem(4 bytes @ 0x40014430)
T65CC 001:122.652   Data:  00 00 00 00
T65CC 001:122.695 - 0.728ms returns 1 (0x1)
T65CC 001:122.886 JLINK_ReadMemU32(0x40014434, 0x1 Items)
T65CC 001:122.907   CPU_ReadMem(4 bytes @ 0x40014434)
T65CC 001:123.588   Data:  00 00 00 00
T65CC 001:123.628 - 0.741ms returns 1 (0x1)
T65CC 001:123.920 JLINK_ReadMemU32(0x40014444, 0x1 Items)
T65CC 001:123.958   CPU_ReadMem(4 bytes @ 0x40014444)
T65CC 001:124.556   Data:  00 00 00 00
T65CC 001:124.594 - 0.674ms returns 1 (0x1)
T65CC 001:125.261 JLINK_ReadMemU32(0x40014448, 0x1 Items)
T65CC 001:125.299   CPU_ReadMem(4 bytes @ 0x40014448)
T65CC 001:125.923   Data:  00 00 00 00
T65CC 001:125.956 - 0.694ms returns 1 (0x1)
T65CC 001:126.214 JLINK_ReadMemU32(0x4001444C, 0x1 Items)
T65CC 001:126.235   CPU_ReadMem(4 bytes @ 0x4001444C)
T65CC 001:126.922   Data:  00 00 00 00
T65CC 001:126.954 - 0.740ms returns 1 (0x1)
T65CC 001:127.151 JLINK_ReadMemU32(0x40014450, 0x1 Items)
T65CC 001:127.172   CPU_ReadMem(4 bytes @ 0x40014450)
T65CC 001:127.832   Data:  00 00 00 00
T65CC 001:127.865 - 0.713ms returns 1 (0x1)
T65CC 001:128.054 JLINK_ReadMemU32(0x40014460, 0x1 Items)
T65CC 001:128.074   CPU_ReadMem(4 bytes @ 0x40014460)
T65CC 001:128.733   Data:  00 00 00 00
T65CC 001:128.766 - 0.712ms returns 1 (0x1)
T65CC 001:155.446 JLINK_IsConnected()
T65CC 001:155.478 - 0.032ms returns TRUE
T65CC 002:114.826 JLINK_IsConnected()
T65CC 002:114.912 - 0.085ms returns TRUE
T65CC 002:813.771 JLINK_SetBPEx(Addr = 0x08000282, Type = 0xFFFFFFF2)
T65CC 002:813.858 - 0.087ms returns 0x00000003
T65CC 002:813.893 JLINK_WriteRegs(NumRegs = 20, Indexes: 0, 1, 2, 3, 4, 5, 6, 7, 8, 9, 10, 11, 12, 13, 14, 15, 16, 17, 18, 20)
T65CC 002:813.922    -- R0=0x80006B7, R1=0x8000994, R2=0x00, R3=0x80006B5, R4=0x80009E0, R5=0x00, R6=0x00, R7=0x00, R8=0x00, R9=0x00, R10=0x00, R11=0x00, R12=0x00, R13 (SP)=0x2000C000, R14=0x80006BB, R15 (PC)=0x8000278, XPSR=0x1000000, MSP=0x2000C000, PSP=0x00, CFBP=0x00
T65CC 002:813.940 - 0.048ms returns 0
T65CC 002:813.955 JLINK_WriteRegs(NumRegs = 1, Indexes: 65)
T65CC 002:813.968    -- CycleCnt=0xDD
T65CC 002:813.986 - 0.030ms returns 0
T65CC 002:814.017 JLINK_GoEx(MaxEmulInsts = -1, Flags = 0x01)
T65CC 002:814.512   CPU_WriteMem(4 bytes @ 0xE0002000)
T65CC 002:815.154   CPU_ReadMem(4 bytes @ 0xE0001000)
T65CC 002:815.800   CPU_WriteMem(4 bytes @ 0xE000ED30)
T65CC 002:816.469   CPU_WriteMem(4 bytes @ 0xE0002008)
T65CC 002:817.257   CPU_WriteMem(4 bytes @ 0xE0001004)
T65CC 002:821.477 - 7.459ms
T65CC 002:827.618 JLINK_IsHalted()
T65CC 002:831.233 - 3.614ms returns TRUE
T65CC 002:831.326 JLINK_ReadRegs(NumRegs = 20, Indexes: 0, 1, 2, 3, 4, 5, 6, 7, 8, 9, 10, 11, 12, 13, 14, 15, 16, 17, 18, 20)
T65CC 002:831.354    -- R0=0x00, R1=0x8000994, R2=0x00, R3=0x80006B5, R4=0x80009E0, R5=0x00, R6=0x00, R7=0x00, R8=0x00, R9=0x00, R10=0x00, R11=0x00, R12=0x00, R13 (SP)=0x2000BFD8, R14=0x80006BB, R15 (PC)=0x8000282, XPSR=0x41000000, MSP=0x2000BFD8, PSP=0x00, CFBP=0x00
T65CC 002:831.373 - 0.047ms returns 0x00
T65CC 002:831.388 JLINK_ReadRegs(NumRegs = 1, Indexes: 65)
T65CC 002:831.405   CPU_ReadMem(4 bytes @ 0xE0001004)
T65CC 002:832.202    -- CycleCnt=0xE4
T65CC 002:832.243 - 0.853ms returns 0x00
T65CC 002:832.268 JLINK_ReadMemU32(0xE000ED04, 0x1 Items)
T65CC 002:832.296   CPU_ReadMem(4 bytes @ 0xE000ED04)
T65CC 002:832.930   Data:  00 00 00 00
T65CC 002:832.970 - 0.701ms returns 1 (0x1)
T65CC 002:833.010 JLINK_GetMOEs(...)
T65CC 002:833.028   CPU_ReadMem(4 bytes @ 0xE000ED30)
T65CC 002:833.780 - 0.768ms returns 0x01
T65CC 002:833.854 JLINK_ReadMemU16(0x08000282, 0x1 Items)
T65CC 002:833.872    -- Read from flash cache (2 bytes @ 0x08000282)
T65CC 002:833.891   Data:  41 F2
T65CC 002:833.910 - 0.056ms returns 1 (0x1)
T65CC 002:833.929 JLINK_ClrBPEx(BPHandle = 0x00000003)
T65CC 002:833.944 - 0.015ms returns 0x00
T65CC 002:833.983 JLINK_ReadMem(0xE000ED08, 0x4 Bytes, ...)
T65CC 002:834.002   CPU_ReadMem(4 bytes @ 0xE000ED08)
T65CC 002:834.749   Data:  00 00 00 00
T65CC 002:834.789 - 0.806ms returns 0
T65CC 002:834.853 JLINK_ReadMem(0x2000BFF8, 0x4 Bytes, ...)
T65CC 002:834.875   CPU_ReadMem(4 bytes @ 0x2000BFF8)
T65CC 002:835.519   Data:  00 00 00 00
T65CC 002:835.559 - 0.706ms returns 0
T65CC 002:835.587 JLINK_ReadMem(0x2000BFFC, 0x4 Bytes, ...)
T65CC 002:835.610   CPU_ReadMem(4 bytes @ 0x2000BFFC)
T65CC 002:836.304   Data:  BB 06 00 08
T65CC 002:836.344 - 0.756ms returns 0
T65CC 002:836.401 JLINK_GetMOEs(...)
T65CC 002:836.415 - 0.013ms returns 0x01
T65CC 002:836.449 JLINK_WriteVectorCatch(0x000007F0)
T65CC 002:836.499 - 0.050ms returns 0
T65CC 002:836.528 JLINK_WriteVectorCatch(0x000007F0)
T65CC 002:836.572 - 0.044ms returns 0
T65CC 002:836.607 JLINK_WriteVectorCatch(0x000007F0)
T65CC 002:836.621 - 0.014ms returns 0
T65CC 002:836.638 JLINK_WriteVectorCatch(0x000007F0)
T65CC 002:836.652 - 0.014ms returns 0
T65CC 002:836.671 JLINK_WriteVectorCatch(0x000007F0)
T65CC 002:836.685 - 0.014ms returns 0
T65CC 002:836.702 JLINK_WriteVectorCatch(0x000007F0)
T65CC 002:836.716 - 0.013ms returns 0
T65CC 002:836.733 JLINK_WriteVectorCatch(0x000007F0)
T65CC 002:836.747 - 0.013ms returns 0
T65CC 002:836.763 JLINK_WriteVectorCatch(0x000007F0)
T65CC 002:836.777 - 0.013ms returns 0
T65CC 002:852.178 JLINK_ReadMem(0x2000BFF0, 0x4 Bytes, ...)
T65CC 002:852.260   CPU_ReadMem(4 bytes @ 0x2000BFF0)
T65CC 002:852.868   Data:  00 00 00 00
T65CC 002:852.901 - 0.723ms returns 0
T65CC 002:852.993 JLINK_ReadMem(0x2000BFEC, 0x4 Bytes, ...)
T65CC 002:853.013   CPU_ReadMem(4 bytes @ 0x2000BFEC)
T65CC 002:853.537   Data:  00 09 3D 00
T65CC 002:853.570 - 0.577ms returns 0
T65CC 002:853.676 JLINK_ReadMem(0x2000BFE8, 0x4 Bytes, ...)
T65CC 002:853.698   CPU_ReadMem(4 bytes @ 0x2000BFE8)
T65CC 002:854.220   Data:  EB DF 08 0C
T65CC 002:854.253 - 0.576ms returns 0
T65CC 002:854.967 JLINK_ReadMemU32(0x48000000, 0x1 Items)
T65CC 002:854.997   CPU_ReadMem(4 bytes @ 0x48000000)
T65CC 002:855.513   Data:  FF FF FF AB
T65CC 002:855.545 - 0.578ms returns 1 (0x1)
T65CC 002:855.600 JLINK_ReadMemU32(0x48000004, 0x1 Items)
T65CC 002:855.618   CPU_ReadMem(4 bytes @ 0x48000004)
T65CC 002:856.183   Data:  FF FF FF AB
T65CC 002:856.218 - 0.617ms returns 1 (0x1)
T65CC 002:856.306 JLINK_ReadMemU32(0x48000008, 0x1 Items)
T65CC 002:856.327   CPU_ReadMem(4 bytes @ 0x48000008)
T65CC 002:856.816   Data:  FF FF FF AB
T65CC 002:856.850 - 0.543ms returns 1 (0x1)
T65CC 002:856.908 JLINK_ReadMemU32(0x4800000C, 0x1 Items)
T65CC 002:856.927   CPU_ReadMem(4 bytes @ 0x4800000C)
T65CC 002:857.492   Data:  FF FF FF AB
T65CC 002:857.527 - 0.618ms returns 1 (0x1)
T65CC 002:857.575 JLINK_ReadMemU32(0x48000010, 0x1 Items)
T65CC 002:857.591   CPU_ReadMem(4 bytes @ 0x48000010)
T65CC 002:858.190   Data:  FF FF FF AB
T65CC 002:858.218 - 0.642ms returns 1 (0x1)
T65CC 002:858.264 JLINK_ReadMemU32(0x48000014, 0x1 Items)
T65CC 002:858.280   CPU_ReadMem(4 bytes @ 0x48000014)
T65CC 002:858.768   Data:  FF FF FF AB
T65CC 002:858.795 - 0.531ms returns 1 (0x1)
T65CC 002:858.842 JLINK_ReadMemU32(0x4800001C, 0x1 Items)
T65CC 002:858.858   CPU_ReadMem(4 bytes @ 0x4800001C)
T65CC 002:859.371   Data:  FF FF FF AB
T65CC 002:859.398 - 0.556ms returns 1 (0x1)
T65CC 002:859.464 JLINK_ReadMemU32(0x48000020, 0x1 Items)
T65CC 002:859.480   CPU_ReadMem(4 bytes @ 0x48000020)
T65CC 002:859.967   Data:  FF FF FF AB
T65CC 002:859.995 - 0.530ms returns 1 (0x1)
T65CC 002:860.033 JLINK_ReadMemU32(0x48000024, 0x1 Items)
T65CC 002:860.049   CPU_ReadMem(4 bytes @ 0x48000024)
T65CC 002:860.530   Data:  FF FF FF AB
T65CC 002:860.560 - 0.527ms returns 1 (0x1)
T65CC 002:860.601 JLINK_ReadMemU32(0x40021000, 0x1 Items)
T65CC 002:860.617   CPU_ReadMem(4 bytes @ 0x40021000)
T65CC 002:861.106   Data:  63 00 00 00
T65CC 002:861.133 - 0.531ms returns 1 (0x1)
T65CC 002:861.183 JLINK_ReadMemU32(0x40021004, 0x1 Items)
T65CC 002:861.199   CPU_ReadMem(4 bytes @ 0x40021004)
T65CC 002:861.760   Data:  92 00 8C 10
T65CC 002:861.788 - 0.604ms returns 1 (0x1)
T65CC 002:861.822 JLINK_ReadMemU32(0x40021008, 0x1 Items)
T65CC 002:861.837   CPU_ReadMem(4 bytes @ 0x40021008)
T65CC 002:862.412   Data:  00 00 00 00
T65CC 002:862.440 - 0.617ms returns 1 (0x1)
T65CC 002:862.481 JLINK_ReadMemU32(0x4002100C, 0x1 Items)
T65CC 002:862.497   CPU_ReadMem(4 bytes @ 0x4002100C)
T65CC 002:863.106   Data:  00 10 00 00
T65CC 002:863.133 - 0.651ms returns 1 (0x1)
T65CC 002:863.226 JLINK_ReadMemU32(0x40021010, 0x1 Items)
T65CC 002:863.245   CPU_ReadMem(4 bytes @ 0x40021010)
T65CC 002:863.879   Data:  00 10 00 00
T65CC 002:863.907 - 0.681ms returns 1 (0x1)
T65CC 002:863.948 JLINK_ReadMemU32(0x40021018, 0x1 Items)
T65CC 002:863.964   CPU_ReadMem(4 bytes @ 0x40021018)
T65CC 002:864.548   Data:  00 00 00 00
T65CC 002:864.583 - 0.634ms returns 1 (0x1)
T65CC 002:864.625 JLINK_ReadMemU32(0x4002101C, 0x1 Items)
T65CC 002:864.641   CPU_ReadMem(4 bytes @ 0x4002101C)
T65CC 002:865.299   Data:  00 00 00 00
T65CC 002:865.326 - 0.700ms returns 1 (0x1)
T65CC 002:865.366 JLINK_ReadMemU32(0x40021028, 0x1 Items)
T65CC 002:865.399   CPU_ReadMem(4 bytes @ 0x40021028)
T65CC 002:865.978   Data:  00 00 00 00
T65CC 002:866.004 - 0.638ms returns 1 (0x1)
T65CC 002:866.040 JLINK_ReadMemU32(0x4002102C, 0x1 Items)
T65CC 002:866.055   CPU_ReadMem(4 bytes @ 0x4002102C)
T65CC 002:866.706   Data:  00 00 00 00
T65CC 002:866.733 - 0.692ms returns 1 (0x1)
T65CC 002:866.772 JLINK_ReadMemU32(0x40021030, 0x1 Items)
T65CC 002:866.788   CPU_ReadMem(4 bytes @ 0x40021030)
T65CC 002:867.346   Data:  00 00 00 00
T65CC 002:867.372 - 0.600ms returns 1 (0x1)
T65CC 002:867.404 JLINK_ReadMemU32(0x40021038, 0x1 Items)
T65CC 002:867.419   CPU_ReadMem(4 bytes @ 0x40021038)
T65CC 002:868.096   Data:  00 00 00 00
T65CC 002:868.122 - 0.718ms returns 1 (0x1)
T65CC 002:868.170 JLINK_ReadMemU32(0x4002103C, 0x1 Items)
T65CC 002:868.185   CPU_ReadMem(4 bytes @ 0x4002103C)
T65CC 002:868.771   Data:  00 00 00 00
T65CC 002:868.798 - 0.627ms returns 1 (0x1)
T65CC 002:868.834 JLINK_ReadMemU32(0x40021040, 0x1 Items)
T65CC 002:868.850   CPU_ReadMem(4 bytes @ 0x40021040)
T65CC 002:869.448   Data:  00 00 00 00
T65CC 002:869.475 - 0.640ms returns 1 (0x1)
T65CC 002:869.514 JLINK_ReadMemU32(0x40021048, 0x1 Items)
T65CC 002:869.530   CPU_ReadMem(4 bytes @ 0x40021048)
T65CC 002:870.106   Data:  00 01 00 00
T65CC 002:870.133 - 0.618ms returns 1 (0x1)
T65CC 002:870.168 JLINK_ReadMemU32(0x4002104C, 0x1 Items)
T65CC 002:870.183   CPU_ReadMem(4 bytes @ 0x4002104C)
T65CC 002:870.788   Data:  00 00 00 00
T65CC 002:870.815 - 0.646ms returns 1 (0x1)
T65CC 002:870.855 JLINK_ReadMemU32(0x40021050, 0x1 Items)
T65CC 002:870.880   CPU_ReadMem(4 bytes @ 0x40021050)
T65CC 002:871.466   Data:  00 00 00 00
T65CC 002:871.493 - 0.638ms returns 1 (0x1)
T65CC 002:871.525 JLINK_ReadMemU32(0x40021058, 0x1 Items)
T65CC 002:871.540   CPU_ReadMem(4 bytes @ 0x40021058)
T65CC 002:872.015   Data:  00 04 00 00
T65CC 002:872.043 - 0.518ms returns 1 (0x1)
T65CC 002:872.099 JLINK_ReadMemU32(0x4002105C, 0x1 Items)
T65CC 002:872.113   CPU_ReadMem(4 bytes @ 0x4002105C)
T65CC 002:872.669   Data:  00 00 00 00
T65CC 002:872.692 - 0.593ms returns 1 (0x1)
T65CC 002:872.723 JLINK_ReadMemU32(0x40021060, 0x1 Items)
T65CC 002:872.736   CPU_ReadMem(4 bytes @ 0x40021060)
T65CC 002:873.375   Data:  00 00 00 00
T65CC 002:873.401 - 0.678ms returns 1 (0x1)
T65CC 002:873.457 JLINK_ReadMemU32(0x40021068, 0x1 Items)
T65CC 002:873.473   CPU_ReadMem(4 bytes @ 0x40021068)
T65CC 002:874.047   Data:  03 13 01 00
T65CC 002:874.085 - 0.627ms returns 1 (0x1)
T65CC 002:874.136 JLINK_ReadMemU32(0x4002106C, 0x1 Items)
T65CC 002:874.158   CPU_ReadMem(4 bytes @ 0x4002106C)
T65CC 002:874.750   Data:  9F 22 05 00
T65CC 002:874.787 - 0.650ms returns 1 (0x1)
T65CC 002:874.842 JLINK_ReadMemU32(0x40021070, 0x1 Items)
T65CC 002:874.891   CPU_ReadMem(4 bytes @ 0x40021070)
T65CC 002:875.530   Data:  00 01 00 00
T65CC 002:875.562 - 0.719ms returns 1 (0x1)
T65CC 002:875.597 JLINK_ReadMemU32(0x40021078, 0x1 Items)
T65CC 002:875.615   CPU_ReadMem(4 bytes @ 0x40021078)
T65CC 002:876.260   Data:  31 CE E6 F7
T65CC 002:876.292 - 0.694ms returns 1 (0x1)
T65CC 002:876.349 JLINK_ReadMemU32(0x4002107C, 0x1 Items)
T65CC 002:876.367   CPU_ReadMem(4 bytes @ 0x4002107C)
T65CC 002:876.922   Data:  25 00 00 00
T65CC 002:876.953 - 0.603ms returns 1 (0x1)
T65CC 002:876.992 JLINK_ReadMemU32(0x40021080, 0x1 Items)
T65CC 002:877.009   CPU_ReadMem(4 bytes @ 0x40021080)
T65CC 002:877.634   Data:  01 5C 23 00
T65CC 002:877.664 - 0.672ms returns 1 (0x1)
T65CC 002:877.709 JLINK_ReadMemU32(0x40021088, 0x1 Items)
T65CC 002:877.727   CPU_ReadMem(4 bytes @ 0x40021088)
T65CC 002:878.356   Data:  00 00 00 00
T65CC 002:878.386 - 0.676ms returns 1 (0x1)
T65CC 002:878.439 JLINK_ReadMemU32(0x40021090, 0x1 Items)
T65CC 002:878.460   CPU_ReadMem(4 bytes @ 0x40021090)
T65CC 002:879.069   Data:  00 00 00 00
T65CC 002:879.100 - 0.660ms returns 1 (0x1)
T65CC 002:879.149 JLINK_ReadMemU32(0x40021094, 0x1 Items)
T65CC 002:879.167   CPU_ReadMem(4 bytes @ 0x40021094)
T65CC 002:879.801   Data:  00 06 00 1C
T65CC 002:879.832 - 0.682ms returns 1 (0x1)
T65CC 002:879.894 JLINK_ReadMemU32(0x40021098, 0x1 Items)
T65CC 002:879.912   CPU_ReadMem(4 bytes @ 0x40021098)
T65CC 002:880.577   Data:  80 76 00 00
T65CC 002:880.608 - 0.714ms returns 1 (0x1)
T65CC 002:880.650 JLINK_ReadMemU32(0x40014000, 0x1 Items)
T65CC 002:880.667   CPU_ReadMem(4 bytes @ 0x40014000)
T65CC 002:881.214   Data:  00 00 00 00
T65CC 002:881.245 - 0.595ms returns 1 (0x1)
T65CC 002:881.289 JLINK_ReadMemU32(0x40014004, 0x1 Items)
T65CC 002:881.307   CPU_ReadMem(4 bytes @ 0x40014004)
T65CC 002:881.951   Data:  00 00 00 00
T65CC 002:881.982 - 0.692ms returns 1 (0x1)
T65CC 002:882.044 JLINK_ReadMemU32(0x4001400C, 0x1 Items)
T65CC 002:882.062   CPU_ReadMem(4 bytes @ 0x4001400C)
T65CC 002:882.746   Data:  00 00 00 00
T65CC 002:882.782 - 0.737ms returns 1 (0x1)
T65CC 002:882.832 JLINK_ReadMemU32(0x40014010, 0x1 Items)
T65CC 002:882.851   CPU_ReadMem(4 bytes @ 0x40014010)
T65CC 002:883.535   Data:  00 00 00 00
T65CC 002:883.570 - 0.738ms returns 1 (0x1)
T65CC 002:883.619 JLINK_ReadMemU32(0x40014018, 0x1 Items)
T65CC 002:883.639   CPU_ReadMem(4 bytes @ 0x40014018)
T65CC 002:884.360   Data:  00 00 00 00
T65CC 002:884.394 - 0.775ms returns 1 (0x1)
T65CC 002:884.442 JLINK_ReadMemU32(0x40014018, 0x1 Items)
T65CC 002:884.462   CPU_ReadMem(4 bytes @ 0x40014018)
T65CC 002:885.107   Data:  00 00 00 00
T65CC 002:885.142 - 0.699ms returns 1 (0x1)
T65CC 002:885.184 JLINK_ReadMemU32(0x40014020, 0x1 Items)
